T3DCC 1261:740.238   SEGGER J-Link V6.86c Log File
T3DCC 1261:740.275   DLL Compiled: Oct  6 2020 14:16:38
T3DCC 1261:740.281   Logging started @ 2025-07-04 14:04
T3DCC 1261:740.286 - 4788.915ms
T3DCC 1261:740.295 JLINK_SetWarnOutHandler(...)
T3DCC 1261:740.300 - 0.007ms
T3DCC 1261:740.307 JLINK_OpenEx(...)
T3DCC 1261:741.510   Firmware: J-Link V9 compiled May  7 2021 16:26:12
T3DCC 1261:741.659   Decompressing FW timestamp took 123 us
T3DCC 1261:748.070   Hardware: V9.50
T3DCC 1261:748.090   S/N: 69542128
T3DCC 1261:748.097   OEM: SEGGER
T3DCC 1261:748.104   Feature(s): JFlash, GDB, RDI, FlashBP, FlashDL
T3DCC 1261:748.910   TELNET listener socket opened on port 19021
T3DCC 1261:752.266   WEBSRV Starting webserver
T3DCC 1261:752.393   WEBSRV Webserver running on local port 19080
T3DCC 1261:752.403 - 12.099ms returns "O.K."
T3DCC 1261:752.422 JLINK_GetEmuCaps()
T3DCC 1261:752.427 - 0.008ms returns 0xB9FF7BBF
T3DCC 1261:752.435 JLINK_TIF_GetAvailable(...)
T3DCC 1261:752.573 - 0.142ms
T3DCC 1261:752.586 JLINK_SetErrorOutHandler(...)
T3DCC 1261:752.591 - 0.007ms
T3DCC 1261:752.858 JLINK_ExecCommand("ProjectFile = "H:\1.project\2.puya\2.chari_onOFF_le\4.code_mixmode3\2.调整打印-控制时序版本\PY32F002B_Firmware_V1.1.5\Projects\PY32F002B-STK\Example_LL\LPTIM\LPTIM_OnceMode_WakeUp_WFI\MDK-ARM\JLinkSettings.ini"", ...). 
T3DCC 1261:754.001 - 1.149ms returns 0x00
T3DCC 1261:762.141 JLINK_ExecCommand("Device = PY32F002Bx5", ...). 
T3DCC 1261:767.366   Device "PY32F002BX5" selected.
T3DCC 1261:767.731 - 5.577ms returns 0x00
T3DCC 1261:767.752 JLINK_GetHardwareVersion()
T3DCC 1261:767.757 - 0.007ms returns 95000
T3DCC 1261:767.764 JLINK_GetDLLVersion()
T3DCC 1261:767.768 - 0.006ms returns 68603
T3DCC 1261:767.774 JLINK_GetOEMString(...)
T3DCC 1261:767.780 JLINK_GetFirmwareString(...)
T3DCC 1261:767.784 - 0.006ms
T3DCC 1261:779.632 JLINK_GetDLLVersion()
T3DCC 1261:779.650 - 0.020ms returns 68603
T3DCC 1261:779.660 JLINK_GetCompileDateTime()
T3DCC 1261:779.665 - 0.006ms
T3DCC 1261:783.982 JLINK_GetFirmwareString(...)
T3DCC 1261:784.003 - 0.022ms
T3DCC 1261:787.533 JLINK_GetHardwareVersion()
T3DCC 1261:787.546 - 0.015ms returns 95000
T3DCC 1261:790.614 JLINK_GetSN()
T3DCC 1261:790.625 - 0.013ms returns 69542128
T3DCC 1261:793.582 JLINK_GetOEMString(...)
T3DCC 1261:801.297 JLINK_TIF_Select(JLINKARM_TIF_SWD)
T3DCC 1261:802.341 - 1.054ms returns 0x00
T3DCC 1261:802.360 JLINK_HasError()
T3DCC 1261:802.368 JLINK_SetSpeed(5000)
T3DCC 1261:802.533 - 0.173ms
T3DCC 1261:802.549 JLINK_GetId()
T3DCC 1261:806.475   Found SW-DP with ID 0x0BC11477
T3DCC 1261:814.086   DPIDR: 0x0BC11477
T3DCC 1261:817.358   Scanning AP map to find all available APs
T3DCC 1261:820.895   AP[1]: Stopped AP scan as end of AP map has been reached
T3DCC 1261:823.630   AP[0]: AHB-AP (IDR: 0x04770031)
T3DCC 1261:826.389   Iterating through AP map to find AHB-AP to use
T3DCC 1261:831.065   AP[0]: Core found
T3DCC 1261:834.271   AP[0]: AHB-AP ROM base: 0xE00FF000
T3DCC 1261:838.354   CPUID register: 0x410CC601. Implementer code: 0x41 (ARM)
T3DCC 1261:841.240   Found Cortex-M0 r0p1, Little endian.
T3DCC 1261:942.453   -- Max. mem block: 0x00010C40
T3DCC 1261:942.530   CPU_ReadMem(4 bytes @ 0xE000EDF0)
T3DCC 1261:943.381   CPU_WriteMem(4 bytes @ 0xE000EDF0)
T3DCC 1261:943.940   CPU_ReadMem(4 bytes @ 0xE0002000)
T3DCC 1261:955.586   FPUnit: 4 code (BP) slots and 0 literal slots
T3DCC 1261:955.624   CPU_ReadMem(4 bytes @ 0xE000EDFC)
T3DCC 1261:956.082   CPU_WriteMem(4 bytes @ 0xE000EDFC)
T3DCC 1261:956.555   CPU_ReadMem(4 bytes @ 0xE0001000)
T3DCC 1261:957.055   CPU_WriteMem(4 bytes @ 0xE0001000)
T3DCC 1261:964.171   CoreSight components:
T3DCC 1261:971.869   ROMTbl[0] @ E00FF000
T3DCC 1261:971.926   CPU_ReadMem(64 bytes @ 0xE00FF000)
T3DCC 1261:972.594   CPU_ReadMem(32 bytes @ 0xE000EFE0)
T3DCC 1261:980.239   ROMTbl[0][0]: E000E000, CID: B105E00D, PID: 000BB008 SCS
T3DCC 1261:980.285   CPU_ReadMem(32 bytes @ 0xE0001FE0)
T3DCC 1261:986.745   ROMTbl[0][1]: E0001000, CID: B105E00D, PID: 000BB00A DWT
T3DCC 1261:986.771   CPU_ReadMem(32 bytes @ 0xE0002FE0)
T3DCC 1261:989.894   ROMTbl[0][2]: E0002000, CID: B105E00D, PID: 000BB00B FPB
T3DCC 1261:990.157 - 187.612ms returns 0x0BC11477
T3DCC 1261:990.170 JLINK_GetDLLVersion()
T3DCC 1261:990.175 - 0.006ms returns 68603
T3DCC 1261:990.185 JLINK_CORE_GetFound()
T3DCC 1261:990.189 - 0.006ms returns 0x60000FF
T3DCC 1261:990.196 JLINK_GetDebugInfo(0x100 = JLINKARM_ROM_TABLE_ADDR_INDEX)
T3DCC 1261:990.201   Value=0xE00FF000
T3DCC 1261:990.208 - 0.013ms returns 0
T3DCC 1261:993.010 JLINK_GetDebugInfo(0x100 = JLINKARM_ROM_TABLE_ADDR_INDEX)
T3DCC 1261:993.023   Value=0xE00FF000
T3DCC 1261:993.029 - 0.022ms returns 0
T3DCC 1261:993.035 JLINK_GetDebugInfo(0x101 = JLINKARM_DEBUG_INFO_ETM_ADDR_INDEX)
T3DCC 1261:993.040   Value=0x00000000
T3DCC 1261:993.046 - 0.013ms returns 0
T3DCC 1261:993.055 JLINK_ReadMemEx(0xE0041FF0, 0x10 Bytes, Flags = 0x02000004)
T3DCC 1261:993.067   CPU_ReadMem(16 bytes @ 0xE0041FF0)
T3DCC 1261:993.577   Data:  00 00 00 00 00 00 00 00 00 00 00 00 00 00 00 00
T3DCC 1261:993.589 - 0.536ms returns 16 (0x10)
T3DCC 1261:993.596 JLINK_GetDebugInfo(0x102 = JLINKARM_DEBUG_INFO_MTB_ADDR_INDEX)
T3DCC 1261:993.602   Value=0x00000000
T3DCC 1261:993.608 - 0.013ms returns 0
T3DCC 1261:993.613 JLINK_GetDebugInfo(0x103 = JLINKARM_DEBUG_INFO_TPIU_ADDR_INDEX)
T3DCC 1261:993.618   Value=0x00000000
T3DCC 1261:993.624 - 0.013ms returns 0
T3DCC 1261:993.629 JLINK_ReadMemEx(0xE0040FF0, 0x10 Bytes, Flags = 0x02000004)
T3DCC 1261:993.638   CPU_ReadMem(16 bytes @ 0xE0040FF0)
T3DCC 1261:994.113   Data:  00 00 00 00 00 00 00 00 00 00 00 00 00 00 00 00
T3DCC 1261:994.127 - 0.500ms returns 16 (0x10)
T3DCC 1261:994.135 JLINK_GetDebugInfo(0x104 = JLINKARM_DEBUG_INFO_ITM_ADDR_INDEX)
T3DCC 1261:994.140   Value=0xE0000000
T3DCC 1261:994.147 - 0.014ms returns 0
T3DCC 1261:994.152 JLINK_GetDebugInfo(0x105 = JLINKARM_DEBUG_INFO_DWT_ADDR_INDEX)
T3DCC 1261:994.157   Value=0xE0001000
T3DCC 1261:994.163 - 0.013ms returns 0
T3DCC 1261:994.168 JLINK_GetDebugInfo(0x106 = JLINKARM_DEBUG_INFO_FPB_ADDR_INDEX)
T3DCC 1261:994.173   Value=0xE0002000
T3DCC 1261:994.179 - 0.012ms returns 0
T3DCC 1261:994.184 JLINK_GetDebugInfo(0x107 = JLINKARM_DEBUG_INFO_NVIC_ADDR_INDEX)
T3DCC 1261:994.189   Value=0xE000E000
T3DCC 1261:994.195 - 0.012ms returns 0
T3DCC 1261:994.200 JLINK_GetDebugInfo(0x10C = JLINKARM_DEBUG_INFO_DBG_ADDR_INDEX)
T3DCC 1261:994.205   Value=0xE000EDF0
T3DCC 1261:994.211 - 0.013ms returns 0
T3DCC 1261:994.216 JLINK_GetDebugInfo(0x01 = Unknown)
T3DCC 1261:994.221   Value=0x00000000
T3DCC 1261:994.227 - 0.013ms returns 0
T3DCC 1261:994.235 JLINK_ReadMemU32(0xE000ED00, 0x1 Items)
T3DCC 1261:994.243   CPU_ReadMem(4 bytes @ 0xE000ED00)
T3DCC 1261:994.674   Data:  01 C6 0C 41
T3DCC 1261:994.689   Debug reg: CPUID
T3DCC 1261:994.695 - 0.462ms returns 1 (0x1)
T3DCC 1261:994.702 JLINK_GetDebugInfo(0x10F = JLINKARM_DEBUG_INFO_HAS_CORTEX_M_SECURITY_EXT_INDEX)
T3DCC 1261:994.708   Value=0x00000000
T3DCC 1261:994.714 - 0.013ms returns 0
T3DCC 1261:994.720 JLINK_HasError()
T3DCC 1261:994.728 JLINK_SetResetType(JLINKARM_CM3_RESET_TYPE_NORMAL)
T3DCC 1261:994.733 - 0.007ms returns JLINKARM_CM3_RESET_TYPE_NORMAL
T3DCC 1261:994.739 JLINK_Reset()
T3DCC 1261:994.747   CPU is running
T3DCC 1261:994.755   CPU_WriteMem(4 bytes @ 0xE000EDF0)
T3DCC 1261:995.188   CPU is running
T3DCC 1261:995.203   CPU_WriteMem(4 bytes @ 0xE000EDFC)
T3DCC 1261:999.563   Reset: Halt core after reset via DEMCR.VC_CORERESET.
T3DCC 1262:004.686   Reset: Reset device via AIRCR.SYSRESETREQ.
T3DCC 1262:004.709   CPU is running
T3DCC 1262:004.719   CPU_WriteMem(4 bytes @ 0xE000ED0C)
T3DCC 1262:057.350   CPU_ReadMem(4 bytes @ 0xE000EDF0)
T3DCC 1262:057.751   CPU_ReadMem(4 bytes @ 0xE000EDF0)
T3DCC 1262:058.228   CPU is running
T3DCC 1262:058.251   CPU_WriteMem(4 bytes @ 0xE000EDF0)
T3DCC 1262:058.709   CPU is running
T3DCC 1262:058.730   CPU_WriteMem(4 bytes @ 0xE000EDFC)
T3DCC 1262:064.185   CPU_ReadMem(4 bytes @ 0xE000EDF0)
T3DCC 1262:067.036   CPU_WriteMem(4 bytes @ 0xE0002000)
T3DCC 1262:067.779   CPU_ReadMem(4 bytes @ 0xE000EDFC)
T3DCC 1262:068.303   CPU_ReadMem(4 bytes @ 0xE0001000)
T3DCC 1262:068.787   CPU_WriteMem(4 bytes @ 0xE0001000)
T3DCC 1262:069.223 - 74.503ms
T3DCC 1262:069.388 JLINK_Halt()
T3DCC 1262:069.413 - 0.029ms returns 0x00
T3DCC 1262:069.427 JLINK_ReadMemU32(0xE000EDF0, 0x1 Items)
T3DCC 1262:069.448   CPU_ReadMem(4 bytes @ 0xE000EDF0)
T3DCC 1262:069.855   Data:  03 00 03 00
T3DCC 1262:069.884   Debug reg: DHCSR
T3DCC 1262:069.898 - 0.476ms returns 1 (0x1)
T3DCC 1262:069.920 JLINK_WriteU32_64(0xE000EDF0, 0xA05F0003)
T3DCC 1262:069.931   Debug reg: DHCSR
T3DCC 1262:069.959   CPU_WriteMem(4 bytes @ 0xE000EDF0)
T3DCC 1262:070.470 - 0.566ms returns 0 (0x00000000)
T3DCC 1262:070.497 JLINK_WriteU32_64(0xE000EDFC, 0x01000000)
T3DCC 1262:070.509   Debug reg: DEMCR
T3DCC 1262:070.533   CPU_WriteMem(4 bytes @ 0xE000EDFC)
T3DCC 1262:070.963 - 0.481ms returns 0 (0x00000000)
T3DCC 1262:087.376 JLINK_GetHWStatus(...)
T3DCC 1262:087.629 - 0.263ms returns 0
T3DCC 1262:099.520 JLINK_GetNumBPUnits(Type = 0xFFFFFF00)
T3DCC 1262:099.544 - 0.026ms returns 0x04
T3DCC 1262:099.550 JLINK_GetNumBPUnits(Type = 0xF0)
T3DCC 1262:099.555 - 0.007ms returns 0x2000
T3DCC 1262:099.561 JLINK_GetNumWPUnits()
T3DCC 1262:099.565 - 0.006ms returns 2
T3DCC 1262:109.519 JLINK_GetSpeed()
T3DCC 1262:109.536 - 0.019ms returns 4000
T3DCC 1262:116.002 JLINK_ReadMemU32(0xE000E004, 0x1 Items)
T3DCC 1262:116.034   CPU_ReadMem(4 bytes @ 0xE000E004)
T3DCC 1262:116.373   Data:  00 00 00 00
T3DCC 1262:116.387 - 0.387ms returns 1 (0x1)
T3DCC 1262:116.399 JLINK_Halt()
T3DCC 1262:116.404 - 0.007ms returns 0x00
T3DCC 1262:116.414 JLINK_IsHalted()
T3DCC 1262:116.420 - 0.007ms returns TRUE
T3DCC 1262:119.162 JLINK_WriteMem(0x20000000, 0x290 Bytes, ...)
T3DCC 1262:119.172   Data:  00 BE 0A E0 0D 78 2D 06 68 40 08 24 40 00 00 D3 ...
T3DCC 1262:119.474   CPU_WriteMem(656 bytes @ 0x20000000)
T3DCC 1262:121.955 - 2.800ms returns 0x290
T3DCC 1262:122.003 JLINK_HasError()
T3DCC 1262:122.013 JLINK_WriteReg(R0, 0x08000000)
T3DCC 1262:122.020 - 0.009ms returns 0
T3DCC 1262:122.026 JLINK_WriteReg(R1, 0x00B71B00)
T3DCC 1262:122.031 - 0.007ms returns 0
T3DCC 1262:122.037 JLINK_WriteReg(R2, 0x00000001)
T3DCC 1262:122.042 - 0.007ms returns 0
T3DCC 1262:122.048 JLINK_WriteReg(R3, 0x00000000)
T3DCC 1262:122.053 - 0.006ms returns 0
T3DCC 1262:122.059 JLINK_WriteReg(R4, 0x00000000)
T3DCC 1262:122.063 - 0.006ms returns 0
T3DCC 1262:122.068 JLINK_WriteReg(R5, 0x00000000)
T3DCC 1262:122.073 - 0.006ms returns 0
T3DCC 1262:122.079 JLINK_WriteReg(R6, 0x00000000)
T3DCC 1262:122.083 - 0.006ms returns 0
T3DCC 1262:122.089 JLINK_WriteReg(R7, 0x00000000)
T3DCC 1262:122.093 - 0.006ms returns 0
T3DCC 1262:122.098 JLINK_WriteReg(R8, 0x00000000)
T3DCC 1262:122.103 - 0.006ms returns 0
T3DCC 1262:122.108 JLINK_WriteReg(R9, 0x20000288)
T3DCC 1262:122.113 - 0.006ms returns 0
T3DCC 1262:122.118 JLINK_WriteReg(R10, 0x00000000)
T3DCC 1262:122.123 - 0.007ms returns 0
T3DCC 1262:122.128 JLINK_WriteReg(R11, 0x00000000)
T3DCC 1262:122.132 - 0.006ms returns 0
T3DCC 1262:122.138 JLINK_WriteReg(R12, 0x00000000)
T3DCC 1262:122.143 - 0.006ms returns 0
T3DCC 1262:122.149 JLINK_WriteReg(R13 (SP), 0x20000800)
T3DCC 1262:122.154 - 0.007ms returns 0
T3DCC 1262:122.160 JLINK_WriteReg(R14, 0x20000001)
T3DCC 1262:122.164 - 0.006ms returns 0
T3DCC 1262:122.170 JLINK_WriteReg(R15 (PC), 0x20000022)
T3DCC 1262:122.174 - 0.007ms returns 0
T3DCC 1262:122.179 JLINK_WriteReg(XPSR, 0x01000000)
T3DCC 1262:122.184 - 0.007ms returns 0
T3DCC 1262:122.189 JLINK_WriteReg(MSP, 0x20000800)
T3DCC 1262:122.194 - 0.006ms returns 0
T3DCC 1262:122.199 JLINK_WriteReg(PSP, 0x20000800)
T3DCC 1262:122.204 - 0.006ms returns 0
T3DCC 1262:122.209 JLINK_WriteReg(CFBP, 0x00000000)
T3DCC 1262:122.213 - 0.006ms returns 0
T3DCC 1262:122.288 JLINK_SetBPEx(Addr = 0x20000000, Type = 0xFFFFFFF2)
T3DCC 1262:122.303   CPU_ReadMem(2 bytes @ 0x20000000)
T3DCC 1262:122.642 - 0.362ms returns 0x00000001
T3DCC 1262:122.657 JLINK_Go()
T3DCC 1262:122.665   CPU_WriteMem(2 bytes @ 0x20000000)
T3DCC 1262:123.030   CPU_ReadMem(4 bytes @ 0xE0001000)
T3DCC 1262:123.316   CPU_WriteMem(4 bytes @ 0xE0001000)
T3DCC 1262:123.329   CPU_WriteMem(4 bytes @ 0xE0002008)
T3DCC 1262:123.336   CPU_WriteMem(4 bytes @ 0xE000200C)
T3DCC 1262:123.343   CPU_WriteMem(4 bytes @ 0xE0002010)
T3DCC 1262:123.350   CPU_WriteMem(4 bytes @ 0xE0002014)
T3DCC 1262:124.194   CPU_WriteMem(4 bytes @ 0xE0001004)
T3DCC 1262:126.611 - 3.961ms
T3DCC 1262:126.624 JLINK_IsHalted()
T3DCC 1262:128.787   CPU_ReadMem(2 bytes @ 0x20000000)
T3DCC 1262:129.124 - 2.508ms returns TRUE
T3DCC 1262:129.141 JLINK_ReadReg(R15 (PC))
T3DCC 1262:129.147 - 0.009ms returns 0x20000000
T3DCC 1262:129.154 JLINK_ClrBPEx(BPHandle = 0x00000001)
T3DCC 1262:129.159 - 0.007ms returns 0x00
T3DCC 1262:129.165 JLINK_ReadReg(R0)
T3DCC 1262:129.170 - 0.007ms returns 0x00000000
T3DCC 1262:129.778 JLINK_HasError()
T3DCC 1262:129.789 JLINK_WriteReg(R0, 0x08000000)
T3DCC 1262:129.794 - 0.008ms returns 0
T3DCC 1262:129.800 JLINK_WriteReg(R1, 0x00B71B00)
T3DCC 1262:129.804 - 0.006ms returns 0
T3DCC 1262:129.810 JLINK_WriteReg(R2, 0x00000001)
T3DCC 1262:129.814 - 0.006ms returns 0
T3DCC 1262:129.819 JLINK_WriteReg(R3, 0x00000000)
T3DCC 1262:129.824 - 0.006ms returns 0
T3DCC 1262:129.829 JLINK_WriteReg(R4, 0x00000000)
T3DCC 1262:129.834 - 0.006ms returns 0
T3DCC 1262:129.839 JLINK_WriteReg(R5, 0x00000000)
T3DCC 1262:129.843 - 0.006ms returns 0
T3DCC 1262:129.848 JLINK_WriteReg(R6, 0x00000000)
T3DCC 1262:129.853 - 0.006ms returns 0
T3DCC 1262:129.858 JLINK_WriteReg(R7, 0x00000000)
T3DCC 1262:129.863 - 0.006ms returns 0
T3DCC 1262:129.868 JLINK_WriteReg(R8, 0x00000000)
T3DCC 1262:129.872 - 0.006ms returns 0
T3DCC 1262:129.877 JLINK_WriteReg(R9, 0x20000288)
T3DCC 1262:129.882 - 0.006ms returns 0
T3DCC 1262:129.887 JLINK_WriteReg(R10, 0x00000000)
T3DCC 1262:129.892 - 0.006ms returns 0
T3DCC 1262:129.897 JLINK_WriteReg(R11, 0x00000000)
T3DCC 1262:129.901 - 0.006ms returns 0
T3DCC 1262:129.906 JLINK_WriteReg(R12, 0x00000000)
T3DCC 1262:129.911 - 0.006ms returns 0
T3DCC 1262:129.916 JLINK_WriteReg(R13 (SP), 0x20000800)
T3DCC 1262:129.921 - 0.007ms returns 0
T3DCC 1262:129.926 JLINK_WriteReg(R14, 0x20000001)
T3DCC 1262:129.931 - 0.006ms returns 0
T3DCC 1262:129.936 JLINK_WriteReg(R15 (PC), 0x2000007E)
T3DCC 1262:129.940 - 0.006ms returns 0
T3DCC 1262:129.946 JLINK_WriteReg(XPSR, 0x01000000)
T3DCC 1262:129.950 - 0.006ms returns 0
T3DCC 1262:129.955 JLINK_WriteReg(MSP, 0x20000800)
T3DCC 1262:129.960 - 0.006ms returns 0
T3DCC 1262:129.965 JLINK_WriteReg(PSP, 0x20000800)
T3DCC 1262:129.969 - 0.006ms returns 0
T3DCC 1262:129.975 JLINK_WriteReg(CFBP, 0x00000000)
T3DCC 1262:129.979 - 0.006ms returns 0
T3DCC 1262:129.984 JLINK_SetBPEx(Addr = 0x20000000, Type = 0xFFFFFFF2)
T3DCC 1262:129.990 - 0.007ms returns 0x00000002
T3DCC 1262:129.995 JLINK_Go()
T3DCC 1262:130.004   CPU_ReadMem(4 bytes @ 0xE0001000)
T3DCC 1262:130.377   CPU_WriteMem(4 bytes @ 0xE0001000)
T3DCC 1262:133.037 - 3.050ms
T3DCC 1262:133.051 JLINK_IsHalted()
T3DCC 1262:136.689 - 3.645ms returns FALSE
T3DCC 1262:136.702 JLINK_HasError()
T3DCC 1262:164.674 JLINK_IsHalted()
T3DCC 1262:167.368   CPU_ReadMem(2 bytes @ 0x20000000)
T3DCC 1262:167.715 - 3.060ms returns TRUE
T3DCC 1262:167.748 JLINK_ReadReg(R15 (PC))
T3DCC 1262:167.760 - 0.018ms returns 0x20000000
T3DCC 1262:167.775 JLINK_ClrBPEx(BPHandle = 0x00000002)
T3DCC 1262:167.785 - 0.013ms returns 0x00
T3DCC 1262:167.793 JLINK_ReadReg(R0)
T3DCC 1262:167.799 - 0.008ms returns 0x00000000
T3DCC 1262:222.249 JLINK_HasError()
T3DCC 1262:222.278 JLINK_WriteReg(R0, 0x00000001)
T3DCC 1262:222.288 - 0.012ms returns 0
T3DCC 1262:222.295 JLINK_WriteReg(R1, 0x00B71B00)
T3DCC 1262:222.301 - 0.009ms returns 0
T3DCC 1262:222.308 JLINK_WriteReg(R2, 0x00000001)
T3DCC 1262:222.314 - 0.008ms returns 0
T3DCC 1262:222.321 JLINK_WriteReg(R3, 0x00000000)
T3DCC 1262:222.327 - 0.008ms returns 0
T3DCC 1262:222.333 JLINK_WriteReg(R4, 0x00000000)
T3DCC 1262:222.339 - 0.008ms returns 0
T3DCC 1262:222.346 JLINK_WriteReg(R5, 0x00000000)
T3DCC 1262:222.405 - 0.062ms returns 0
T3DCC 1262:222.412 JLINK_WriteReg(R6, 0x00000000)
T3DCC 1262:222.418 - 0.008ms returns 0
T3DCC 1262:222.425 JLINK_WriteReg(R7, 0x00000000)
T3DCC 1262:222.431 - 0.008ms returns 0
T3DCC 1262:222.437 JLINK_WriteReg(R8, 0x00000000)
T3DCC 1262:222.443 - 0.008ms returns 0
T3DCC 1262:222.450 JLINK_WriteReg(R9, 0x20000288)
T3DCC 1262:222.455 - 0.008ms returns 0
T3DCC 1262:222.462 JLINK_WriteReg(R10, 0x00000000)
T3DCC 1262:222.468 - 0.009ms returns 0
T3DCC 1262:222.475 JLINK_WriteReg(R11, 0x00000000)
T3DCC 1262:222.481 - 0.008ms returns 0
T3DCC 1262:222.487 JLINK_WriteReg(R12, 0x00000000)
T3DCC 1262:222.493 - 0.008ms returns 0
T3DCC 1262:222.500 JLINK_WriteReg(R13 (SP), 0x20000800)
T3DCC 1262:222.506 - 0.009ms returns 0
T3DCC 1262:222.513 JLINK_WriteReg(R14, 0x20000001)
T3DCC 1262:222.519 - 0.008ms returns 0
T3DCC 1262:222.525 JLINK_WriteReg(R15 (PC), 0x20000064)
T3DCC 1262:222.532 - 0.008ms returns 0
T3DCC 1262:222.538 JLINK_WriteReg(XPSR, 0x01000000)
T3DCC 1262:222.544 - 0.008ms returns 0
T3DCC 1262:222.551 JLINK_WriteReg(MSP, 0x20000800)
T3DCC 1262:222.556 - 0.008ms returns 0
T3DCC 1262:222.563 JLINK_WriteReg(PSP, 0x20000800)
T3DCC 1262:222.569 - 0.008ms returns 0
T3DCC 1262:222.575 JLINK_WriteReg(CFBP, 0x00000000)
T3DCC 1262:222.581 - 0.008ms returns 0
T3DCC 1262:222.588 JLINK_SetBPEx(Addr = 0x20000000, Type = 0xFFFFFFF2)
T3DCC 1262:222.596 - 0.010ms returns 0x00000003
T3DCC 1262:222.603 JLINK_Go()
T3DCC 1262:222.618   CPU_ReadMem(4 bytes @ 0xE0001000)
T3DCC 1262:223.001   CPU_WriteMem(4 bytes @ 0xE0001000)
T3DCC 1262:225.811 - 3.245ms
T3DCC 1262:225.876 JLINK_IsHalted()
T3DCC 1262:228.376   CPU_ReadMem(2 bytes @ 0x20000000)
T3DCC 1262:228.917 - 3.068ms returns TRUE
T3DCC 1262:228.971 JLINK_ReadReg(R15 (PC))
T3DCC 1262:228.993 - 0.030ms returns 0x20000000
T3DCC 1262:229.012 JLINK_ClrBPEx(BPHandle = 0x00000003)
T3DCC 1262:229.028 - 0.023ms returns 0x00
T3DCC 1262:229.048 JLINK_ReadReg(R0)
T3DCC 1262:229.063 - 0.022ms returns 0x00000000
T3DCC 1262:244.464 JLINK_WriteMem(0x20000000, 0x290 Bytes, ...)
T3DCC 1262:244.496   Data:  00 BE 0A E0 0D 78 2D 06 68 40 08 24 40 00 00 D3 ...
T3DCC 1262:244.538   CPU_WriteMem(656 bytes @ 0x20000000)
T3DCC 1262:247.156 - 2.736ms returns 0x290
T3DCC 1262:247.291 JLINK_HasError()
T3DCC 1262:247.333 JLINK_WriteReg(R0, 0x08000000)
T3DCC 1262:247.356 - 0.029ms returns 0
T3DCC 1262:247.374 JLINK_WriteReg(R1, 0x00B71B00)
T3DCC 1262:247.388 - 0.021ms returns 0
T3DCC 1262:247.405 JLINK_WriteReg(R2, 0x00000002)
T3DCC 1262:247.420 - 0.022ms returns 0
T3DCC 1262:247.436 JLINK_WriteReg(R3, 0x00000000)
T3DCC 1262:247.453 - 0.023ms returns 0
T3DCC 1262:247.469 JLINK_WriteReg(R4, 0x00000000)
T3DCC 1262:247.483 - 0.020ms returns 0
T3DCC 1262:247.499 JLINK_WriteReg(R5, 0x00000000)
T3DCC 1262:247.513 - 0.020ms returns 0
T3DCC 1262:247.529 JLINK_WriteReg(R6, 0x00000000)
T3DCC 1262:247.543 - 0.020ms returns 0
T3DCC 1262:247.559 JLINK_WriteReg(R7, 0x00000000)
T3DCC 1262:247.573 - 0.021ms returns 0
T3DCC 1262:247.589 JLINK_WriteReg(R8, 0x00000000)
T3DCC 1262:247.603 - 0.021ms returns 0
T3DCC 1262:247.619 JLINK_WriteReg(R9, 0x20000288)
T3DCC 1262:247.633 - 0.020ms returns 0
T3DCC 1262:247.649 JLINK_WriteReg(R10, 0x00000000)
T3DCC 1262:247.663 - 0.021ms returns 0
T3DCC 1262:247.679 JLINK_WriteReg(R11, 0x00000000)
T3DCC 1262:247.693 - 0.021ms returns 0
T3DCC 1262:247.709 JLINK_WriteReg(R12, 0x00000000)
T3DCC 1262:247.723 - 0.020ms returns 0
T3DCC 1262:247.739 JLINK_WriteReg(R13 (SP), 0x20000800)
T3DCC 1262:247.755 - 0.022ms returns 0
T3DCC 1262:247.770 JLINK_WriteReg(R14, 0x20000001)
T3DCC 1262:247.785 - 0.021ms returns 0
T3DCC 1262:247.800 JLINK_WriteReg(R15 (PC), 0x20000022)
T3DCC 1262:247.815 - 0.021ms returns 0
T3DCC 1262:247.830 JLINK_WriteReg(XPSR, 0x01000000)
T3DCC 1262:247.844 - 0.020ms returns 0
T3DCC 1262:247.860 JLINK_WriteReg(MSP, 0x20000800)
T3DCC 1262:247.874 - 0.020ms returns 0
T3DCC 1262:247.890 JLINK_WriteReg(PSP, 0x20000800)
T3DCC 1262:247.904 - 0.020ms returns 0
T3DCC 1262:248.020 JLINK_WriteReg(CFBP, 0x00000000)
T3DCC 1262:248.044 - 0.030ms returns 0
T3DCC 1262:248.061 JLINK_SetBPEx(Addr = 0x20000000, Type = 0xFFFFFFF2)
T3DCC 1262:248.088   CPU_ReadMem(2 bytes @ 0x20000000)
T3DCC 1262:248.553 - 0.522ms returns 0x00000004
T3DCC 1262:248.600 JLINK_Go()
T3DCC 1262:248.624   CPU_WriteMem(2 bytes @ 0x20000000)
T3DCC 1262:249.124   CPU_ReadMem(4 bytes @ 0xE0001000)
T3DCC 1262:249.783   CPU_WriteMem(4 bytes @ 0xE0001000)
T3DCC 1262:252.891 - 4.335ms
T3DCC 1262:252.956 JLINK_IsHalted()
T3DCC 1262:255.580   CPU_ReadMem(2 bytes @ 0x20000000)
T3DCC 1262:256.104 - 3.175ms returns TRUE
T3DCC 1262:256.157 JLINK_ReadReg(R15 (PC))
T3DCC 1262:256.179 - 0.030ms returns 0x20000000
T3DCC 1262:256.197 JLINK_ClrBPEx(BPHandle = 0x00000004)
T3DCC 1262:256.213 - 0.023ms returns 0x00
T3DCC 1262:256.379 JLINK_ReadReg(R0)
T3DCC 1262:256.423 - 0.053ms returns 0x00000000
T3DCC 1262:257.120 JLINK_WriteMem(0x20000290, 0x80 Bytes, ...)
T3DCC 1262:257.151   Data:  60 05 00 20 D5 00 00 08 25 0B 00 08 65 06 00 08 ...
T3DCC 1262:257.195   CPU_WriteMem(128 bytes @ 0x20000290)
T3DCC 1262:258.294 - 1.221ms returns 0x80
T3DCC 1262:258.365 JLINK_HasError()
T3DCC 1262:258.386 JLINK_WriteReg(R0, 0x08000000)
T3DCC 1262:258.410 - 0.031ms returns 0
T3DCC 1262:258.428 JLINK_WriteReg(R1, 0x00000080)
T3DCC 1262:258.444 - 0.023ms returns 0
T3DCC 1262:258.461 JLINK_WriteReg(R2, 0x20000290)
T3DCC 1262:258.477 - 0.022ms returns 0
T3DCC 1262:258.493 JLINK_WriteReg(R3, 0x00000000)
T3DCC 1262:258.508 - 0.021ms returns 0
T3DCC 1262:258.524 JLINK_WriteReg(R4, 0x00000000)
T3DCC 1262:258.539 - 0.021ms returns 0
T3DCC 1262:258.555 JLINK_WriteReg(R5, 0x00000000)
T3DCC 1262:258.569 - 0.021ms returns 0
T3DCC 1262:258.585 JLINK_WriteReg(R6, 0x00000000)
T3DCC 1262:258.599 - 0.021ms returns 0
T3DCC 1262:258.615 JLINK_WriteReg(R7, 0x00000000)
T3DCC 1262:258.629 - 0.021ms returns 0
T3DCC 1262:258.645 JLINK_WriteReg(R8, 0x00000000)
T3DCC 1262:258.659 - 0.021ms returns 0
T3DCC 1262:258.675 JLINK_WriteReg(R9, 0x20000288)
T3DCC 1262:258.689 - 0.020ms returns 0
T3DCC 1262:258.705 JLINK_WriteReg(R10, 0x00000000)
T3DCC 1262:258.720 - 0.021ms returns 0
T3DCC 1262:258.736 JLINK_WriteReg(R11, 0x00000000)
T3DCC 1262:258.750 - 0.021ms returns 0
T3DCC 1262:258.766 JLINK_WriteReg(R12, 0x00000000)
T3DCC 1262:258.780 - 0.020ms returns 0
T3DCC 1262:258.796 JLINK_WriteReg(R13 (SP), 0x20000800)
T3DCC 1262:258.811 - 0.022ms returns 0
T3DCC 1262:258.827 JLINK_WriteReg(R14, 0x20000001)
T3DCC 1262:258.841 - 0.021ms returns 0
T3DCC 1262:258.857 JLINK_WriteReg(R15 (PC), 0x2000016A)
T3DCC 1262:258.872 - 0.021ms returns 0
T3DCC 1262:258.888 JLINK_WriteReg(XPSR, 0x01000000)
T3DCC 1262:258.902 - 0.021ms returns 0
T3DCC 1262:258.918 JLINK_WriteReg(MSP, 0x20000800)
T3DCC 1262:258.932 - 0.021ms returns 0
T3DCC 1262:258.948 JLINK_WriteReg(PSP, 0x20000800)
T3DCC 1262:258.962 - 0.021ms returns 0
T3DCC 1262:258.978 JLINK_WriteReg(CFBP, 0x00000000)
T3DCC 1262:258.992 - 0.020ms returns 0
T3DCC 1262:259.009 JLINK_SetBPEx(Addr = 0x20000000, Type = 0xFFFFFFF2)
T3DCC 1262:259.026 - 0.024ms returns 0x00000005
T3DCC 1262:259.043 JLINK_Go()
T3DCC 1262:259.074   CPU_ReadMem(4 bytes @ 0xE0001000)
T3DCC 1262:259.592   CPU_WriteMem(4 bytes @ 0xE0001000)
T3DCC 1262:262.334 - 3.334ms
T3DCC 1262:262.398 JLINK_IsHalted()
T3DCC 1262:263.437 - 1.079ms returns FALSE
T3DCC 1262:263.503 JLINK_HasError()
T3DCC 1262:286.536 JLINK_IsHalted()
T3DCC 1262:288.727   CPU_ReadMem(2 bytes @ 0x20000000)
T3DCC 1262:289.205 - 2.689ms returns TRUE
T3DCC 1262:289.238 JLINK_ReadReg(R15 (PC))
T3DCC 1262:289.254 - 0.021ms returns 0x20000000
T3DCC 1262:289.267 JLINK_ClrBPEx(BPHandle = 0x00000005)
T3DCC 1262:289.279 - 0.016ms returns 0x00
T3DCC 1262:289.291 JLINK_ReadReg(R0)
T3DCC 1262:289.302 - 0.015ms returns 0x00000000
T3DCC 1262:290.145 JLINK_WriteMem(0x20000290, 0x80 Bytes, ...)
T3DCC 1262:290.169   Data:  00 00 00 00 1D 0B 00 08 00 00 00 00 E7 00 00 08 ...
T3DCC 1262:290.204   CPU_WriteMem(128 bytes @ 0x20000290)
T3DCC 1262:291.208 - 1.107ms returns 0x80
T3DCC 1262:291.274 JLINK_HasError()
T3DCC 1262:291.291 JLINK_WriteReg(R0, 0x08000080)
T3DCC 1262:291.308 - 0.022ms returns 0
T3DCC 1262:291.321 JLINK_WriteReg(R1, 0x00000080)
T3DCC 1262:291.332 - 0.016ms returns 0
T3DCC 1262:291.344 JLINK_WriteReg(R2, 0x20000290)
T3DCC 1262:291.354 - 0.015ms returns 0
T3DCC 1262:291.366 JLINK_WriteReg(R3, 0x00000000)
T3DCC 1262:291.377 - 0.016ms returns 0
T3DCC 1262:291.389 JLINK_WriteReg(R4, 0x00000000)
T3DCC 1262:291.399 - 0.015ms returns 0
T3DCC 1262:291.411 JLINK_WriteReg(R5, 0x00000000)
T3DCC 1262:291.421 - 0.015ms returns 0
T3DCC 1262:291.432 JLINK_WriteReg(R6, 0x00000000)
T3DCC 1262:291.443 - 0.015ms returns 0
T3DCC 1262:291.454 JLINK_WriteReg(R7, 0x00000000)
T3DCC 1262:291.464 - 0.015ms returns 0
T3DCC 1262:291.476 JLINK_WriteReg(R8, 0x00000000)
T3DCC 1262:291.486 - 0.015ms returns 0
T3DCC 1262:291.497 JLINK_WriteReg(R9, 0x20000288)
T3DCC 1262:291.507 - 0.015ms returns 0
T3DCC 1262:291.519 JLINK_WriteReg(R10, 0x00000000)
T3DCC 1262:291.529 - 0.015ms returns 0
T3DCC 1262:291.541 JLINK_WriteReg(R11, 0x00000000)
T3DCC 1262:291.552 - 0.015ms returns 0
T3DCC 1262:291.563 JLINK_WriteReg(R12, 0x00000000)
T3DCC 1262:291.573 - 0.015ms returns 0
T3DCC 1262:291.585 JLINK_WriteReg(R13 (SP), 0x20000800)
T3DCC 1262:291.596 - 0.016ms returns 0
T3DCC 1262:291.607 JLINK_WriteReg(R14, 0x20000001)
T3DCC 1262:291.618 - 0.015ms returns 0
T3DCC 1262:291.629 JLINK_WriteReg(R15 (PC), 0x2000016A)
T3DCC 1262:291.640 - 0.015ms returns 0
T3DCC 1262:291.651 JLINK_WriteReg(XPSR, 0x01000000)
T3DCC 1262:291.661 - 0.015ms returns 0
T3DCC 1262:291.673 JLINK_WriteReg(MSP, 0x20000800)
T3DCC 1262:291.683 - 0.015ms returns 0
T3DCC 1262:291.694 JLINK_WriteReg(PSP, 0x20000800)
T3DCC 1262:291.704 - 0.015ms returns 0
T3DCC 1262:291.716 JLINK_WriteReg(CFBP, 0x00000000)
T3DCC 1262:291.726 - 0.015ms returns 0
T3DCC 1262:291.738 JLINK_SetBPEx(Addr = 0x20000000, Type = 0xFFFFFFF2)
T3DCC 1262:291.751 - 0.017ms returns 0x00000006
T3DCC 1262:291.763 JLINK_Go()
T3DCC 1262:291.785   CPU_ReadMem(4 bytes @ 0xE0001000)
T3DCC 1262:292.187   CPU_WriteMem(4 bytes @ 0xE0001000)
T3DCC 1262:294.794 - 3.063ms
T3DCC 1262:294.841 JLINK_IsHalted()
T3DCC 1262:295.843 - 1.019ms returns FALSE
T3DCC 1262:295.873 JLINK_HasError()
T3DCC 1262:302.203 JLINK_IsHalted()
T3DCC 1262:304.197   CPU_ReadMem(2 bytes @ 0x20000000)
T3DCC 1262:304.534 - 2.344ms returns TRUE
T3DCC 1262:304.556 JLINK_ReadReg(R15 (PC))
T3DCC 1262:304.567 - 0.014ms returns 0x20000000
T3DCC 1262:304.576 JLINK_ClrBPEx(BPHandle = 0x00000006)
T3DCC 1262:304.584 - 0.011ms returns 0x00
T3DCC 1262:304.592 JLINK_ReadReg(R0)
T3DCC 1262:304.599 - 0.010ms returns 0x00000000
T3DCC 1262:305.071 JLINK_WriteMem(0x20000290, 0x80 Bytes, ...)
T3DCC 1262:305.080   Data:  D5 40 9D 42 05 D3 1D 46 95 40 49 1B 25 46 95 40 ...
T3DCC 1262:305.093   CPU_WriteMem(128 bytes @ 0x20000290)
T3DCC 1262:306.163 - 1.099ms returns 0x80
T3DCC 1262:306.176 JLINK_HasError()
T3DCC 1262:306.183 JLINK_WriteReg(R0, 0x08000100)
T3DCC 1262:306.189 - 0.008ms returns 0
T3DCC 1262:306.195 JLINK_WriteReg(R1, 0x00000080)
T3DCC 1262:306.200 - 0.007ms returns 0
T3DCC 1262:306.205 JLINK_WriteReg(R2, 0x20000290)
T3DCC 1262:306.210 - 0.007ms returns 0
T3DCC 1262:306.215 JLINK_WriteReg(R3, 0x00000000)
T3DCC 1262:306.219 - 0.006ms returns 0
T3DCC 1262:306.225 JLINK_WriteReg(R4, 0x00000000)
T3DCC 1262:306.229 - 0.006ms returns 0
T3DCC 1262:306.234 JLINK_WriteReg(R5, 0x00000000)
T3DCC 1262:306.239 - 0.006ms returns 0
T3DCC 1262:306.244 JLINK_WriteReg(R6, 0x00000000)
T3DCC 1262:306.249 - 0.006ms returns 0
T3DCC 1262:306.254 JLINK_WriteReg(R7, 0x00000000)
T3DCC 1262:306.258 - 0.006ms returns 0
T3DCC 1262:306.263 JLINK_WriteReg(R8, 0x00000000)
T3DCC 1262:306.268 - 0.006ms returns 0
T3DCC 1262:306.273 JLINK_WriteReg(R9, 0x20000288)
T3DCC 1262:306.278 - 0.006ms returns 0
T3DCC 1262:306.283 JLINK_WriteReg(R10, 0x00000000)
T3DCC 1262:306.288 - 0.006ms returns 0
T3DCC 1262:306.293 JLINK_WriteReg(R11, 0x00000000)
T3DCC 1262:306.297 - 0.009ms returns 0
T3DCC 1262:306.307 JLINK_WriteReg(R12, 0x00000000)
T3DCC 1262:306.311 - 0.006ms returns 0
T3DCC 1262:306.316 JLINK_WriteReg(R13 (SP), 0x20000800)
T3DCC 1262:306.321 - 0.007ms returns 0
T3DCC 1262:306.327 JLINK_WriteReg(R14, 0x20000001)
T3DCC 1262:306.331 - 0.006ms returns 0
T3DCC 1262:306.336 JLINK_WriteReg(R15 (PC), 0x2000016A)
T3DCC 1262:306.341 - 0.006ms returns 0
T3DCC 1262:306.346 JLINK_WriteReg(XPSR, 0x01000000)
T3DCC 1262:306.351 - 0.006ms returns 0
T3DCC 1262:306.356 JLINK_WriteReg(MSP, 0x20000800)
T3DCC 1262:306.360 - 0.006ms returns 0
T3DCC 1262:306.365 JLINK_WriteReg(PSP, 0x20000800)
T3DCC 1262:306.370 - 0.006ms returns 0
T3DCC 1262:306.375 JLINK_WriteReg(CFBP, 0x00000000)
T3DCC 1262:306.380 - 0.006ms returns 0
T3DCC 1262:306.385 JLINK_SetBPEx(Addr = 0x20000000, Type = 0xFFFFFFF2)
T3DCC 1262:306.390 - 0.007ms returns 0x00000007
T3DCC 1262:306.396 JLINK_Go()
T3DCC 1262:306.405   CPU_ReadMem(4 bytes @ 0xE0001000)
T3DCC 1262:306.721   CPU_WriteMem(4 bytes @ 0xE0001000)
T3DCC 1262:309.101 - 2.713ms
T3DCC 1262:309.117 JLINK_IsHalted()
T3DCC 1262:310.420 - 1.308ms returns FALSE
T3DCC 1262:310.452 JLINK_HasError()
T3DCC 1262:315.395 JLINK_IsHalted()
T3DCC 1262:318.252   CPU_ReadMem(2 bytes @ 0x20000000)
T3DCC 1262:318.668 - 3.296ms returns TRUE
T3DCC 1262:318.700 JLINK_ReadReg(R15 (PC))
T3DCC 1262:318.709 - 0.011ms returns 0x20000000
T3DCC 1262:318.715 JLINK_ClrBPEx(BPHandle = 0x00000007)
T3DCC 1262:318.720 - 0.007ms returns 0x00
T3DCC 1262:318.726 JLINK_ReadReg(R0)
T3DCC 1262:318.731 - 0.007ms returns 0x00000000
T3DCC 1262:319.210 JLINK_WriteMem(0x20000290, 0x80 Bytes, ...)
T3DCC 1262:319.226   Data:  FF F7 A2 FF A8 1B 00 08 C8 1B 00 08 10 B5 0D 48 ...
T3DCC 1262:319.244   CPU_WriteMem(128 bytes @ 0x20000290)
T3DCC 1262:320.262 - 1.076ms returns 0x80
T3DCC 1262:320.297 JLINK_HasError()
T3DCC 1262:320.304 JLINK_WriteReg(R0, 0x08000180)
T3DCC 1262:320.314 - 0.012ms returns 0
T3DCC 1262:320.319 JLINK_WriteReg(R1, 0x00000080)
T3DCC 1262:320.324 - 0.007ms returns 0
T3DCC 1262:320.329 JLINK_WriteReg(R2, 0x20000290)
T3DCC 1262:320.334 - 0.006ms returns 0
T3DCC 1262:320.339 JLINK_WriteReg(R3, 0x00000000)
T3DCC 1262:320.344 - 0.007ms returns 0
T3DCC 1262:320.349 JLINK_WriteReg(R4, 0x00000000)
T3DCC 1262:320.354 - 0.007ms returns 0
T3DCC 1262:320.359 JLINK_WriteReg(R5, 0x00000000)
T3DCC 1262:320.364 - 0.006ms returns 0
T3DCC 1262:320.369 JLINK_WriteReg(R6, 0x00000000)
T3DCC 1262:320.373 - 0.006ms returns 0
T3DCC 1262:320.379 JLINK_WriteReg(R7, 0x00000000)
T3DCC 1262:320.383 - 0.007ms returns 0
T3DCC 1262:320.389 JLINK_WriteReg(R8, 0x00000000)
T3DCC 1262:320.393 - 0.006ms returns 0
T3DCC 1262:320.399 JLINK_WriteReg(R9, 0x20000288)
T3DCC 1262:320.403 - 0.006ms returns 0
T3DCC 1262:320.408 JLINK_WriteReg(R10, 0x00000000)
T3DCC 1262:320.413 - 0.007ms returns 0
T3DCC 1262:320.421 JLINK_WriteReg(R11, 0x00000000)
T3DCC 1262:320.426 - 0.006ms returns 0
T3DCC 1262:320.432 JLINK_WriteReg(R12, 0x00000000)
T3DCC 1262:320.456 - 0.027ms returns 0
T3DCC 1262:320.463 JLINK_WriteReg(R13 (SP), 0x20000800)
T3DCC 1262:320.469 - 0.009ms returns 0
T3DCC 1262:320.476 JLINK_WriteReg(R14, 0x20000001)
T3DCC 1262:320.481 - 0.007ms returns 0
T3DCC 1262:320.487 JLINK_WriteReg(R15 (PC), 0x2000016A)
T3DCC 1262:320.492 - 0.007ms returns 0
T3DCC 1262:320.498 JLINK_WriteReg(XPSR, 0x01000000)
T3DCC 1262:320.503 - 0.008ms returns 0
T3DCC 1262:320.509 JLINK_WriteReg(MSP, 0x20000800)
T3DCC 1262:320.514 - 0.007ms returns 0
T3DCC 1262:320.519 JLINK_WriteReg(PSP, 0x20000800)
T3DCC 1262:320.538 - 0.020ms returns 0
T3DCC 1262:320.543 JLINK_WriteReg(CFBP, 0x00000000)
T3DCC 1262:320.547 - 0.006ms returns 0
T3DCC 1262:320.553 JLINK_SetBPEx(Addr = 0x20000000, Type = 0xFFFFFFF2)
T3DCC 1262:320.559 - 0.008ms returns 0x00000008
T3DCC 1262:320.564 JLINK_Go()
T3DCC 1262:320.577   CPU_ReadMem(4 bytes @ 0xE0001000)
T3DCC 1262:320.998   CPU_WriteMem(4 bytes @ 0xE0001000)
T3DCC 1262:324.653 - 4.121ms
T3DCC 1262:324.699 JLINK_IsHalted()
T3DCC 1262:325.715 - 1.039ms returns FALSE
T3DCC 1262:325.753 JLINK_HasError()
T3DCC 1262:328.961 JLINK_IsHalted()
T3DCC 1262:331.047   CPU_ReadMem(2 bytes @ 0x20000000)
T3DCC 1262:331.439 - 2.485ms returns TRUE
T3DCC 1262:331.454 JLINK_ReadReg(R15 (PC))
T3DCC 1262:331.462 - 0.010ms returns 0x20000000
T3DCC 1262:331.468 JLINK_ClrBPEx(BPHandle = 0x00000008)
T3DCC 1262:331.473 - 0.007ms returns 0x00
T3DCC 1262:331.479 JLINK_ReadReg(R0)
T3DCC 1262:331.483 - 0.006ms returns 0x00000000
T3DCC 1262:331.914 JLINK_WriteMem(0x20000290, 0x80 Bytes, ...)
T3DCC 1262:331.923   Data:  40 07 2F 49 09 69 09 01 09 09 01 43 2C 4A 11 61 ...
T3DCC 1262:331.935   CPU_WriteMem(128 bytes @ 0x20000290)
T3DCC 1262:332.854 - 0.965ms returns 0x80
T3DCC 1262:332.889 JLINK_HasError()
T3DCC 1262:332.896 JLINK_WriteReg(R0, 0x08000200)
T3DCC 1262:332.906 - 0.012ms returns 0
T3DCC 1262:332.912 JLINK_WriteReg(R1, 0x00000080)
T3DCC 1262:332.917 - 0.007ms returns 0
T3DCC 1262:332.922 JLINK_WriteReg(R2, 0x20000290)
T3DCC 1262:332.927 - 0.007ms returns 0
T3DCC 1262:332.932 JLINK_WriteReg(R3, 0x00000000)
T3DCC 1262:332.937 - 0.007ms returns 0
T3DCC 1262:332.942 JLINK_WriteReg(R4, 0x00000000)
T3DCC 1262:332.947 - 0.006ms returns 0
T3DCC 1262:332.952 JLINK_WriteReg(R5, 0x00000000)
T3DCC 1262:332.957 - 0.007ms returns 0
T3DCC 1262:332.962 JLINK_WriteReg(R6, 0x00000000)
T3DCC 1262:332.967 - 0.006ms returns 0
T3DCC 1262:332.972 JLINK_WriteReg(R7, 0x00000000)
T3DCC 1262:332.977 - 0.006ms returns 0
T3DCC 1262:332.982 JLINK_WriteReg(R8, 0x00000000)
T3DCC 1262:332.986 - 0.006ms returns 0
T3DCC 1262:332.991 JLINK_WriteReg(R9, 0x20000288)
T3DCC 1262:332.996 - 0.006ms returns 0
T3DCC 1262:333.001 JLINK_WriteReg(R10, 0x00000000)
T3DCC 1262:333.006 - 0.006ms returns 0
T3DCC 1262:333.011 JLINK_WriteReg(R11, 0x00000000)
T3DCC 1262:333.015 - 0.006ms returns 0
T3DCC 1262:333.020 JLINK_WriteReg(R12, 0x00000000)
T3DCC 1262:333.025 - 0.006ms returns 0
T3DCC 1262:333.030 JLINK_WriteReg(R13 (SP), 0x20000800)
T3DCC 1262:333.036 - 0.008ms returns 0
T3DCC 1262:333.041 JLINK_WriteReg(R14, 0x20000001)
T3DCC 1262:333.045 - 0.006ms returns 0
T3DCC 1262:333.050 JLINK_WriteReg(R15 (PC), 0x2000016A)
T3DCC 1262:333.055 - 0.006ms returns 0
T3DCC 1262:333.060 JLINK_WriteReg(XPSR, 0x01000000)
T3DCC 1262:333.065 - 0.006ms returns 0
T3DCC 1262:333.070 JLINK_WriteReg(MSP, 0x20000800)
T3DCC 1262:333.075 - 0.006ms returns 0
T3DCC 1262:333.080 JLINK_WriteReg(PSP, 0x20000800)
T3DCC 1262:333.084 - 0.006ms returns 0
T3DCC 1262:333.089 JLINK_WriteReg(CFBP, 0x00000000)
T3DCC 1262:333.094 - 0.006ms returns 0
T3DCC 1262:333.099 JLINK_SetBPEx(Addr = 0x20000000, Type = 0xFFFFFFF2)
T3DCC 1262:333.106 - 0.008ms returns 0x00000009
T3DCC 1262:333.111 JLINK_Go()
T3DCC 1262:333.124   CPU_ReadMem(4 bytes @ 0xE0001000)
T3DCC 1262:333.567   CPU_WriteMem(4 bytes @ 0xE0001000)
T3DCC 1262:336.963 - 3.876ms
T3DCC 1262:337.000 JLINK_IsHalted()
T3DCC 1262:338.056 - 1.080ms returns FALSE
T3DCC 1262:338.095 JLINK_HasError()
T3DCC 1262:339.524 JLINK_IsHalted()
T3DCC 1262:341.719   CPU_ReadMem(2 bytes @ 0x20000000)
T3DCC 1262:342.189 - 2.677ms returns TRUE
T3DCC 1262:342.209 JLINK_ReadReg(R15 (PC))
T3DCC 1262:342.217 - 0.011ms returns 0x20000000
T3DCC 1262:342.224 JLINK_ClrBPEx(BPHandle = 0x00000009)
T3DCC 1262:342.229 - 0.007ms returns 0x00
T3DCC 1262:342.235 JLINK_ReadReg(R0)
T3DCC 1262:342.239 - 0.007ms returns 0x00000000
T3DCC 1262:342.719 JLINK_WriteMem(0x20000290, 0x80 Bytes, ...)
T3DCC 1262:342.735   Data:  11 46 C9 68 02 46 91 43 01 43 0D 4A D1 60 00 BF ...
T3DCC 1262:342.751   CPU_WriteMem(128 bytes @ 0x20000290)
T3DCC 1262:343.722 - 1.028ms returns 0x80
T3DCC 1262:343.757 JLINK_HasError()
T3DCC 1262:343.764 JLINK_WriteReg(R0, 0x08000280)
T3DCC 1262:343.774 - 0.012ms returns 0
T3DCC 1262:343.780 JLINK_WriteReg(R1, 0x00000080)
T3DCC 1262:343.785 - 0.007ms returns 0
T3DCC 1262:343.791 JLINK_WriteReg(R2, 0x20000290)
T3DCC 1262:343.795 - 0.007ms returns 0
T3DCC 1262:343.801 JLINK_WriteReg(R3, 0x00000000)
T3DCC 1262:343.806 - 0.007ms returns 0
T3DCC 1262:343.811 JLINK_WriteReg(R4, 0x00000000)
T3DCC 1262:343.820 - 0.014ms returns 0
T3DCC 1262:343.828 JLINK_WriteReg(R5, 0x00000000)
T3DCC 1262:343.833 - 0.006ms returns 0
T3DCC 1262:343.838 JLINK_WriteReg(R6, 0x00000000)
T3DCC 1262:343.842 - 0.006ms returns 0
T3DCC 1262:343.848 JLINK_WriteReg(R7, 0x00000000)
T3DCC 1262:343.852 - 0.006ms returns 0
T3DCC 1262:343.857 JLINK_WriteReg(R8, 0x00000000)
T3DCC 1262:343.862 - 0.006ms returns 0
T3DCC 1262:343.867 JLINK_WriteReg(R9, 0x20000288)
T3DCC 1262:343.871 - 0.006ms returns 0
T3DCC 1262:343.877 JLINK_WriteReg(R10, 0x00000000)
T3DCC 1262:343.881 - 0.006ms returns 0
T3DCC 1262:343.886 JLINK_WriteReg(R11, 0x00000000)
T3DCC 1262:343.891 - 0.007ms returns 0
T3DCC 1262:343.897 JLINK_WriteReg(R12, 0x00000000)
T3DCC 1262:343.901 - 0.006ms returns 0
T3DCC 1262:343.906 JLINK_WriteReg(R13 (SP), 0x20000800)
T3DCC 1262:343.912 - 0.007ms returns 0
T3DCC 1262:343.917 JLINK_WriteReg(R14, 0x20000001)
T3DCC 1262:343.921 - 0.006ms returns 0
T3DCC 1262:343.927 JLINK_WriteReg(R15 (PC), 0x2000016A)
T3DCC 1262:343.931 - 0.007ms returns 0
T3DCC 1262:343.936 JLINK_WriteReg(XPSR, 0x01000000)
T3DCC 1262:343.941 - 0.007ms returns 0
T3DCC 1262:343.947 JLINK_WriteReg(MSP, 0x20000800)
T3DCC 1262:343.951 - 0.007ms returns 0
T3DCC 1262:343.956 JLINK_WriteReg(PSP, 0x20000800)
T3DCC 1262:343.961 - 0.006ms returns 0
T3DCC 1262:343.966 JLINK_WriteReg(CFBP, 0x00000000)
T3DCC 1262:343.971 - 0.006ms returns 0
T3DCC 1262:343.976 JLINK_SetBPEx(Addr = 0x20000000, Type = 0xFFFFFFF2)
T3DCC 1262:343.982 - 0.008ms returns 0x0000000A
T3DCC 1262:343.988 JLINK_Go()
T3DCC 1262:344.000   CPU_ReadMem(4 bytes @ 0xE0001000)
T3DCC 1262:344.449   CPU_WriteMem(4 bytes @ 0xE0001000)
T3DCC 1262:347.515 - 3.548ms
T3DCC 1262:347.546 JLINK_IsHalted()
T3DCC 1262:349.116 - 1.595ms returns FALSE
T3DCC 1262:349.151 JLINK_HasError()
T3DCC 1262:353.557 JLINK_IsHalted()
T3DCC 1262:355.750   CPU_ReadMem(2 bytes @ 0x20000000)
T3DCC 1262:356.134 - 2.591ms returns TRUE
T3DCC 1262:356.156 JLINK_ReadReg(R15 (PC))
T3DCC 1262:356.166 - 0.013ms returns 0x20000000
T3DCC 1262:356.173 JLINK_ClrBPEx(BPHandle = 0x0000000A)
T3DCC 1262:356.178 - 0.008ms returns 0x00
T3DCC 1262:356.185 JLINK_ReadReg(R0)
T3DCC 1262:356.189 - 0.007ms returns 0x00000000
T3DCC 1262:356.689 JLINK_WriteMem(0x20000290, 0x80 Bytes, ...)
T3DCC 1262:356.704   Data:  00 BF 00 BF 0F 48 00 68 04 21 08 40 80 08 00 28 ...
T3DCC 1262:356.732   CPU_WriteMem(128 bytes @ 0x20000290)
T3DCC 1262:357.610 - 0.942ms returns 0x80
T3DCC 1262:357.640 JLINK_HasError()
T3DCC 1262:357.648 JLINK_WriteReg(R0, 0x08000300)
T3DCC 1262:357.657 - 0.011ms returns 0
T3DCC 1262:357.662 JLINK_WriteReg(R1, 0x00000080)
T3DCC 1262:357.667 - 0.007ms returns 0
T3DCC 1262:357.673 JLINK_WriteReg(R2, 0x20000290)
T3DCC 1262:357.677 - 0.007ms returns 0
T3DCC 1262:357.683 JLINK_WriteReg(R3, 0x00000000)
T3DCC 1262:357.687 - 0.007ms returns 0
T3DCC 1262:357.693 JLINK_WriteReg(R4, 0x00000000)
T3DCC 1262:357.697 - 0.007ms returns 0
T3DCC 1262:357.703 JLINK_WriteReg(R5, 0x00000000)
T3DCC 1262:357.707 - 0.006ms returns 0
T3DCC 1262:357.713 JLINK_WriteReg(R6, 0x00000000)
T3DCC 1262:357.717 - 0.006ms returns 0
T3DCC 1262:357.722 JLINK_WriteReg(R7, 0x00000000)
T3DCC 1262:357.727 - 0.006ms returns 0
T3DCC 1262:357.732 JLINK_WriteReg(R8, 0x00000000)
T3DCC 1262:357.736 - 0.006ms returns 0
T3DCC 1262:357.741 JLINK_WriteReg(R9, 0x20000288)
T3DCC 1262:357.746 - 0.006ms returns 0
T3DCC 1262:357.751 JLINK_WriteReg(R10, 0x00000000)
T3DCC 1262:357.756 - 0.006ms returns 0
T3DCC 1262:357.761 JLINK_WriteReg(R11, 0x00000000)
T3DCC 1262:357.765 - 0.007ms returns 0
T3DCC 1262:357.771 JLINK_WriteReg(R12, 0x00000000)
T3DCC 1262:357.775 - 0.006ms returns 0
T3DCC 1262:357.780 JLINK_WriteReg(R13 (SP), 0x20000800)
T3DCC 1262:357.785 - 0.007ms returns 0
T3DCC 1262:357.790 JLINK_WriteReg(R14, 0x20000001)
T3DCC 1262:357.795 - 0.007ms returns 0
T3DCC 1262:357.800 JLINK_WriteReg(R15 (PC), 0x2000016A)
T3DCC 1262:357.805 - 0.006ms returns 0
T3DCC 1262:357.810 JLINK_WriteReg(XPSR, 0x01000000)
T3DCC 1262:357.815 - 0.010ms returns 0
T3DCC 1262:357.826 JLINK_WriteReg(MSP, 0x20000800)
T3DCC 1262:357.831 - 0.006ms returns 0
T3DCC 1262:357.836 JLINK_WriteReg(PSP, 0x20000800)
T3DCC 1262:357.840 - 0.006ms returns 0
T3DCC 1262:357.846 JLINK_WriteReg(CFBP, 0x00000000)
T3DCC 1262:357.850 - 0.007ms returns 0
T3DCC 1262:357.856 JLINK_SetBPEx(Addr = 0x20000000, Type = 0xFFFFFFF2)
T3DCC 1262:357.862 - 0.008ms returns 0x0000000B
T3DCC 1262:357.868 JLINK_Go()
T3DCC 1262:357.880   CPU_ReadMem(4 bytes @ 0xE0001000)
T3DCC 1262:358.306   CPU_WriteMem(4 bytes @ 0xE0001000)
T3DCC 1262:361.718 - 3.872ms
T3DCC 1262:361.749 JLINK_IsHalted()
T3DCC 1262:362.799 - 1.071ms returns FALSE
T3DCC 1262:362.830 JLINK_HasError()
T3DCC 1262:368.190 JLINK_IsHalted()
T3DCC 1262:370.832   CPU_ReadMem(2 bytes @ 0x20000000)
T3DCC 1262:371.296 - 3.121ms returns TRUE
T3DCC 1262:371.318 JLINK_ReadReg(R15 (PC))
T3DCC 1262:371.326 - 0.011ms returns 0x20000000
T3DCC 1262:371.351 JLINK_ClrBPEx(BPHandle = 0x0000000B)
T3DCC 1262:371.357 - 0.009ms returns 0x00
T3DCC 1262:371.365 JLINK_ReadReg(R0)
T3DCC 1262:371.371 - 0.008ms returns 0x00000000
T3DCC 1262:372.491 JLINK_WriteMem(0x20000290, 0x80 Bytes, ...)
T3DCC 1262:372.505   Data:  05 4A 11 60 00 BF 00 BF 04 48 80 68 02 21 08 43 ...
T3DCC 1262:372.519   CPU_WriteMem(128 bytes @ 0x20000290)
T3DCC 1262:373.895 - 1.426ms returns 0x80
T3DCC 1262:373.927 JLINK_HasError()
T3DCC 1262:373.935 JLINK_WriteReg(R0, 0x08000380)
T3DCC 1262:373.945 - 0.012ms returns 0
T3DCC 1262:373.951 JLINK_WriteReg(R1, 0x00000080)
T3DCC 1262:373.956 - 0.007ms returns 0
T3DCC 1262:373.974 JLINK_WriteReg(R2, 0x20000290)
T3DCC 1262:373.979 - 0.007ms returns 0
T3DCC 1262:373.985 JLINK_WriteReg(R3, 0x00000000)
T3DCC 1262:373.990 - 0.007ms returns 0
T3DCC 1262:373.995 JLINK_WriteReg(R4, 0x00000000)
T3DCC 1262:374.000 - 0.006ms returns 0
T3DCC 1262:374.005 JLINK_WriteReg(R5, 0x00000000)
T3DCC 1262:374.009 - 0.006ms returns 0
T3DCC 1262:374.015 JLINK_WriteReg(R6, 0x00000000)
T3DCC 1262:374.019 - 0.007ms returns 0
T3DCC 1262:374.025 JLINK_WriteReg(R7, 0x00000000)
T3DCC 1262:374.029 - 0.006ms returns 0
T3DCC 1262:374.034 JLINK_WriteReg(R8, 0x00000000)
T3DCC 1262:374.039 - 0.006ms returns 0
T3DCC 1262:374.044 JLINK_WriteReg(R9, 0x20000288)
T3DCC 1262:374.049 - 0.007ms returns 0
T3DCC 1262:374.054 JLINK_WriteReg(R10, 0x00000000)
T3DCC 1262:374.059 - 0.006ms returns 0
T3DCC 1262:374.064 JLINK_WriteReg(R11, 0x00000000)
T3DCC 1262:374.068 - 0.006ms returns 0
T3DCC 1262:374.074 JLINK_WriteReg(R12, 0x00000000)
T3DCC 1262:374.078 - 0.006ms returns 0
T3DCC 1262:374.083 JLINK_WriteReg(R13 (SP), 0x20000800)
T3DCC 1262:374.088 - 0.007ms returns 0
T3DCC 1262:374.094 JLINK_WriteReg(R14, 0x20000001)
T3DCC 1262:374.098 - 0.006ms returns 0
T3DCC 1262:374.103 JLINK_WriteReg(R15 (PC), 0x2000016A)
T3DCC 1262:374.108 - 0.006ms returns 0
T3DCC 1262:374.113 JLINK_WriteReg(XPSR, 0x01000000)
T3DCC 1262:374.118 - 0.006ms returns 0
T3DCC 1262:374.123 JLINK_WriteReg(MSP, 0x20000800)
T3DCC 1262:374.128 - 0.006ms returns 0
T3DCC 1262:374.133 JLINK_WriteReg(PSP, 0x20000800)
T3DCC 1262:374.137 - 0.006ms returns 0
T3DCC 1262:374.142 JLINK_WriteReg(CFBP, 0x00000000)
T3DCC 1262:374.147 - 0.006ms returns 0
T3DCC 1262:374.152 JLINK_SetBPEx(Addr = 0x20000000, Type = 0xFFFFFFF2)
T3DCC 1262:374.158 - 0.008ms returns 0x0000000C
T3DCC 1262:374.164 JLINK_Go()
T3DCC 1262:374.176   CPU_ReadMem(4 bytes @ 0xE0001000)
T3DCC 1262:374.581   CPU_WriteMem(4 bytes @ 0xE0001000)
T3DCC 1262:378.407 - 4.263ms
T3DCC 1262:378.436 JLINK_IsHalted()
T3DCC 1262:379.510 - 1.095ms returns FALSE
T3DCC 1262:379.540 JLINK_HasError()
T3DCC 1262:382.869 JLINK_IsHalted()
T3DCC 1262:385.025   CPU_ReadMem(2 bytes @ 0x20000000)
T3DCC 1262:385.993 - 3.145ms returns TRUE
T3DCC 1262:386.022 JLINK_ReadReg(R15 (PC))
T3DCC 1262:386.030 - 0.010ms returns 0x20000000
T3DCC 1262:386.037 JLINK_ClrBPEx(BPHandle = 0x0000000C)
T3DCC 1262:386.042 - 0.007ms returns 0x00
T3DCC 1262:386.047 JLINK_ReadReg(R0)
T3DCC 1262:386.052 - 0.007ms returns 0x00000000
T3DCC 1262:386.504 JLINK_WriteMem(0x20000290, 0x80 Bytes, ...)
T3DCC 1262:386.526   Data:  40 10 02 40 10 B5 8E B0 04 46 01 20 31 49 49 6B ...
T3DCC 1262:386.569   CPU_WriteMem(128 bytes @ 0x20000290)
T3DCC 1262:387.933 - 1.447ms returns 0x80
T3DCC 1262:387.961 JLINK_HasError()
T3DCC 1262:387.968 JLINK_WriteReg(R0, 0x08000400)
T3DCC 1262:387.977 - 0.011ms returns 0
T3DCC 1262:387.983 JLINK_WriteReg(R1, 0x00000080)
T3DCC 1262:387.988 - 0.007ms returns 0
T3DCC 1262:387.993 JLINK_WriteReg(R2, 0x20000290)
T3DCC 1262:387.998 - 0.007ms returns 0
T3DCC 1262:388.003 JLINK_WriteReg(R3, 0x00000000)
T3DCC 1262:388.007 - 0.006ms returns 0
T3DCC 1262:388.012 JLINK_WriteReg(R4, 0x00000000)
T3DCC 1262:388.017 - 0.006ms returns 0
T3DCC 1262:388.022 JLINK_WriteReg(R5, 0x00000000)
T3DCC 1262:388.027 - 0.006ms returns 0
T3DCC 1262:388.032 JLINK_WriteReg(R6, 0x00000000)
T3DCC 1262:388.036 - 0.006ms returns 0
T3DCC 1262:388.042 JLINK_WriteReg(R7, 0x00000000)
T3DCC 1262:388.046 - 0.007ms returns 0
T3DCC 1262:388.052 JLINK_WriteReg(R8, 0x00000000)
T3DCC 1262:388.056 - 0.006ms returns 0
T3DCC 1262:388.061 JLINK_WriteReg(R9, 0x20000288)
T3DCC 1262:388.066 - 0.006ms returns 0
T3DCC 1262:388.071 JLINK_WriteReg(R10, 0x00000000)
T3DCC 1262:388.076 - 0.006ms returns 0
T3DCC 1262:388.081 JLINK_WriteReg(R11, 0x00000000)
T3DCC 1262:388.085 - 0.006ms returns 0
T3DCC 1262:388.090 JLINK_WriteReg(R12, 0x00000000)
T3DCC 1262:388.095 - 0.006ms returns 0
T3DCC 1262:388.100 JLINK_WriteReg(R13 (SP), 0x20000800)
T3DCC 1262:388.105 - 0.007ms returns 0
T3DCC 1262:388.110 JLINK_WriteReg(R14, 0x20000001)
T3DCC 1262:388.115 - 0.006ms returns 0
T3DCC 1262:388.120 JLINK_WriteReg(R15 (PC), 0x2000016A)
T3DCC 1262:388.124 - 0.006ms returns 0
T3DCC 1262:388.130 JLINK_WriteReg(XPSR, 0x01000000)
T3DCC 1262:388.134 - 0.007ms returns 0
T3DCC 1262:388.139 JLINK_WriteReg(MSP, 0x20000800)
T3DCC 1262:388.144 - 0.006ms returns 0
T3DCC 1262:388.149 JLINK_WriteReg(PSP, 0x20000800)
T3DCC 1262:388.154 - 0.006ms returns 0
T3DCC 1262:388.159 JLINK_WriteReg(CFBP, 0x00000000)
T3DCC 1262:388.163 - 0.006ms returns 0
T3DCC 1262:388.169 JLINK_SetBPEx(Addr = 0x20000000, Type = 0xFFFFFFF2)
T3DCC 1262:388.174 - 0.008ms returns 0x0000000D
T3DCC 1262:388.180 JLINK_Go()
T3DCC 1262:388.192   CPU_ReadMem(4 bytes @ 0xE0001000)
T3DCC 1262:388.503   CPU_WriteMem(4 bytes @ 0xE0001000)
T3DCC 1262:392.191 - 4.032ms
T3DCC 1262:392.224 JLINK_IsHalted()
T3DCC 1262:393.274 - 1.070ms returns FALSE
T3DCC 1262:393.308 JLINK_HasError()
T3DCC 1262:396.699 JLINK_IsHalted()
T3DCC 1262:398.770   CPU_ReadMem(2 bytes @ 0x20000000)
T3DCC 1262:399.205 - 2.524ms returns TRUE
T3DCC 1262:399.231 JLINK_ReadReg(R15 (PC))
T3DCC 1262:399.239 - 0.010ms returns 0x20000000
T3DCC 1262:399.245 JLINK_ClrBPEx(BPHandle = 0x0000000D)
T3DCC 1262:399.250 - 0.007ms returns 0x00
T3DCC 1262:399.256 JLINK_ReadReg(R0)
T3DCC 1262:399.261 - 0.007ms returns 0x00000000
T3DCC 1262:399.704 JLINK_WriteMem(0x20000290, 0x80 Bytes, ...)
T3DCC 1262:399.719   Data:  11 60 00 BF 7D 20 00 03 01 90 00 20 02 90 03 90 ...
T3DCC 1262:399.734   CPU_WriteMem(128 bytes @ 0x20000290)
T3DCC 1262:400.737 - 1.054ms returns 0x80
T3DCC 1262:400.767 JLINK_HasError()
T3DCC 1262:400.775 JLINK_WriteReg(R0, 0x08000480)
T3DCC 1262:400.784 - 0.011ms returns 0
T3DCC 1262:400.790 JLINK_WriteReg(R1, 0x00000080)
T3DCC 1262:400.795 - 0.007ms returns 0
T3DCC 1262:400.800 JLINK_WriteReg(R2, 0x20000290)
T3DCC 1262:400.805 - 0.007ms returns 0
T3DCC 1262:400.810 JLINK_WriteReg(R3, 0x00000000)
T3DCC 1262:400.814 - 0.006ms returns 0
T3DCC 1262:400.820 JLINK_WriteReg(R4, 0x00000000)
T3DCC 1262:400.824 - 0.006ms returns 0
T3DCC 1262:400.829 JLINK_WriteReg(R5, 0x00000000)
T3DCC 1262:400.834 - 0.006ms returns 0
T3DCC 1262:400.839 JLINK_WriteReg(R6, 0x00000000)
T3DCC 1262:400.844 - 0.006ms returns 0
T3DCC 1262:400.849 JLINK_WriteReg(R7, 0x00000000)
T3DCC 1262:400.853 - 0.006ms returns 0
T3DCC 1262:400.858 JLINK_WriteReg(R8, 0x00000000)
T3DCC 1262:400.863 - 0.006ms returns 0
T3DCC 1262:400.868 JLINK_WriteReg(R9, 0x20000288)
T3DCC 1262:400.876 - 0.013ms returns 0
T3DCC 1262:400.884 JLINK_WriteReg(R10, 0x00000000)
T3DCC 1262:400.889 - 0.006ms returns 0
T3DCC 1262:400.894 JLINK_WriteReg(R11, 0x00000000)
T3DCC 1262:400.898 - 0.006ms returns 0
T3DCC 1262:400.903 JLINK_WriteReg(R12, 0x00000000)
T3DCC 1262:400.908 - 0.007ms returns 0
T3DCC 1262:400.914 JLINK_WriteReg(R13 (SP), 0x20000800)
T3DCC 1262:400.919 - 0.007ms returns 0
T3DCC 1262:400.924 JLINK_WriteReg(R14, 0x20000001)
T3DCC 1262:400.929 - 0.006ms returns 0
T3DCC 1262:400.934 JLINK_WriteReg(R15 (PC), 0x2000016A)
T3DCC 1262:400.939 - 0.007ms returns 0
T3DCC 1262:400.944 JLINK_WriteReg(XPSR, 0x01000000)
T3DCC 1262:400.949 - 0.007ms returns 0
T3DCC 1262:400.954 JLINK_WriteReg(MSP, 0x20000800)
T3DCC 1262:400.958 - 0.006ms returns 0
T3DCC 1262:400.964 JLINK_WriteReg(PSP, 0x20000800)
T3DCC 1262:400.968 - 0.006ms returns 0
T3DCC 1262:400.973 JLINK_WriteReg(CFBP, 0x00000000)
T3DCC 1262:400.978 - 0.006ms returns 0
T3DCC 1262:400.983 JLINK_SetBPEx(Addr = 0x20000000, Type = 0xFFFFFFF2)
T3DCC 1262:400.989 - 0.008ms returns 0x0000000E
T3DCC 1262:400.995 JLINK_Go()
T3DCC 1262:401.007   CPU_ReadMem(4 bytes @ 0xE0001000)
T3DCC 1262:401.418   CPU_WriteMem(4 bytes @ 0xE0001000)
T3DCC 1262:404.636 - 3.663ms
T3DCC 1262:404.667 JLINK_IsHalted()
T3DCC 1262:405.724 - 1.076ms returns FALSE
T3DCC 1262:405.753 JLINK_HasError()
T3DCC 1262:412.160 JLINK_IsHalted()
T3DCC 1262:414.221   CPU_ReadMem(2 bytes @ 0x20000000)
T3DCC 1262:414.647 - 2.495ms returns TRUE
T3DCC 1262:414.662 JLINK_ReadReg(R15 (PC))
T3DCC 1262:414.670 - 0.010ms returns 0x20000000
T3DCC 1262:414.677 JLINK_ClrBPEx(BPHandle = 0x0000000E)
T3DCC 1262:414.682 - 0.008ms returns 0x00
T3DCC 1262:414.688 JLINK_ReadReg(R0)
T3DCC 1262:414.694 - 0.007ms returns 0x00000000
T3DCC 1262:415.149 JLINK_WriteMem(0x20000290, 0x80 Bytes, ...)
